                     * c:\users\hp\esim-workspace\cm\cm.cir
                     Transient Analysis  Fri Nov 08 22:46:08  2024
--------------------------------------------------------------------------------
Index   time            m.x1.xm1.msky13 m.x1.xm1.msky13 m.x1.xm1.msky13 
--------------------------------------------------------------------------------
0	0.000000e+00	1.341350e+00	1.341350e+00	1.341350e+00	
1	3.000000e-06	1.341350e+00	1.341350e+00	1.341350e+00	
2	6.000000e-06	1.341350e+00	1.341350e+00	1.341350e+00	
3	1.200000e-05	1.341350e+00	1.341350e+00	1.341350e+00	
4	2.400000e-05	1.341350e+00	1.341350e+00	1.341350e+00	
5	4.800000e-05	1.341350e+00	1.341350e+00	1.341350e+00	
6	9.600000e-05	1.341350e+00	1.341350e+00	1.341350e+00	
7	1.920000e-04	1.341350e+00	1.341350e+00	1.341350e+00	
8	3.840000e-04	1.341350e+00	1.341350e+00	1.341350e+00	
9	7.680000e-04	1.341350e+00	1.341350e+00	1.341350e+00	
10	1.368000e-03	1.341349e+00	1.341349e+00	1.341349e+00	
11	1.968000e-03	1.341350e+00	1.341350e+00	1.341350e+00	
12	2.568000e-03	1.341350e+00	1.341350e+00	1.341350e+00	
13	3.168000e-03	1.341350e+00	1.341350e+00	1.341350e+00	
14	3.768000e-03	1.341349e+00	1.341349e+00	1.341349e+00	
15	4.368000e-03	1.341350e+00	1.341350e+00	1.341350e+00	
16	4.968000e-03	1.341350e+00	1.341350e+00	1.341350e+00	
17	5.568000e-03	1.341349e+00	1.341349e+00	1.341349e+00	
18	6.168000e-03	1.341349e+00	1.341349e+00	1.341349e+00	
19	6.768000e-03	1.341350e+00	1.341350e+00	1.341350e+00	
20	7.368000e-03	1.341350e+00	1.341350e+00	1.341350e+00	
21	7.968000e-03	1.341349e+00	1.341349e+00	1.341349e+00	
22	8.568000e-03	1.341349e+00	1.341349e+00	1.341349e+00	
23	9.168000e-03	1.341349e+00	1.341349e+00	1.341349e+00	
24	9.768000e-03	1.341349e+00	1.341349e+00	1.341349e+00	
25	1.036800e-02	1.341350e+00	1.341350e+00	1.341350e+00	
26	1.096800e-02	1.341350e+00	1.341350e+00	1.341350e+00	
27	1.156800e-02	1.341350e+00	1.341350e+00	1.341350e+00	
28	1.216800e-02	1.341350e+00	1.341350e+00	1.341350e+00	
29	1.276800e-02	1.341350e+00	1.341350e+00	1.341350e+00	
30	1.336800e-02	1.341350e+00	1.341350e+00	1.341350e+00	
31	1.396800e-02	1.341350e+00	1.341350e+00	1.341350e+00	
32	1.456800e-02	1.341350e+00	1.341350e+00	1.341350e+00	
33	1.516800e-02	1.341349e+00	1.341349e+00	1.341349e+00	
34	1.576800e-02	1.341349e+00	1.341349e+00	1.341349e+00	
35	1.636800e-02	1.341349e+00	1.341349e+00	1.341349e+00	
36	1.696800e-02	1.341350e+00	1.341350e+00	1.341350e+00	
37	1.756800e-02	1.341350e+00	1.341350e+00	1.341350e+00	
38	1.816800e-02	1.341350e+00	1.341350e+00	1.341350e+00	
39	1.876800e-02	1.341350e+00	1.341350e+00	1.341350e+00	
40	1.936800e-02	1.341350e+00	1.341350e+00	1.341350e+00	
41	1.996800e-02	1.341350e+00	1.341350e+00	1.341350e+00	
42	2.056800e-02	1.341350e+00	1.341350e+00	1.341350e+00	
43	2.116800e-02	1.341350e+00	1.341350e+00	1.341350e+00	
44	2.176800e-02	1.341350e+00	1.341350e+00	1.341350e+00	
45	2.236800e-02	1.341349e+00	1.341349e+00	1.341349e+00	
46	2.296800e-02	1.341349e+00	1.341349e+00	1.341349e+00	
47	2.356800e-02	1.341350e+00	1.341350e+00	1.341350e+00	
48	2.416800e-02	1.341350e+00	1.341350e+00	1.341350e+00	
49	2.476800e-02	1.341350e+00	1.341350e+00	1.341350e+00	
50	2.536800e-02	1.341350e+00	1.341350e+00	1.341350e+00	
51	2.596800e-02	1.341350e+00	1.341350e+00	1.341350e+00	
52	2.656800e-02	1.341350e+00	1.341350e+00	1.341350e+00	
53	2.716800e-02	1.341350e+00	1.341350e+00	1.341350e+00	
54	2.776800e-02	1.341350e+00	1.341350e+00	1.341350e+00	

Index   time            m.x1.xm1.msky13 m.x1.xm1.msky13 m.x1.xm1.msky13 
--------------------------------------------------------------------------------
55	2.836800e-02	1.341350e+00	1.341350e+00	1.341350e+00	
56	2.896800e-02	1.341350e+00	1.341350e+00	1.341350e+00	
57	2.956800e-02	1.341349e+00	1.341349e+00	1.341349e+00	
58	3.000000e-02	1.341349e+00	1.341349e+00	1.341349e+00	

                     * c:\users\hp\esim-workspace\cm\cm.cir
                     Transient Analysis  Fri Nov 08 22:46:08  2024
--------------------------------------------------------------------------------
Index   time            m.x1.xm2.msky13 m.x1.xm2.msky13 m.x1.xm2.msky13 
--------------------------------------------------------------------------------
0	0.000000e+00	1.341350e+00	1.341350e+00	1.341350e+00	
1	3.000000e-06	1.341350e+00	1.341350e+00	1.341350e+00	
2	6.000000e-06	1.341350e+00	1.341350e+00	1.341350e+00	
3	1.200000e-05	1.341350e+00	1.341350e+00	1.341350e+00	
4	2.400000e-05	1.341350e+00	1.341350e+00	1.341350e+00	
5	4.800000e-05	1.341350e+00	1.341350e+00	1.341350e+00	
6	9.600000e-05	1.341350e+00	1.341350e+00	1.341350e+00	
7	1.920000e-04	1.341350e+00	1.341350e+00	1.341350e+00	
8	3.840000e-04	1.341350e+00	1.341350e+00	1.341350e+00	
9	7.680000e-04	1.341350e+00	1.341350e+00	1.341350e+00	
10	1.368000e-03	1.341349e+00	1.341349e+00	1.341349e+00	
11	1.968000e-03	1.341350e+00	1.341350e+00	1.341350e+00	
12	2.568000e-03	1.341350e+00	1.341350e+00	1.341350e+00	
13	3.168000e-03	1.341350e+00	1.341350e+00	1.341350e+00	
14	3.768000e-03	1.341349e+00	1.341349e+00	1.341349e+00	
15	4.368000e-03	1.341350e+00	1.341350e+00	1.341350e+00	
16	4.968000e-03	1.341350e+00	1.341350e+00	1.341350e+00	
17	5.568000e-03	1.341349e+00	1.341349e+00	1.341349e+00	
18	6.168000e-03	1.341349e+00	1.341349e+00	1.341349e+00	
19	6.768000e-03	1.341350e+00	1.341350e+00	1.341350e+00	
20	7.368000e-03	1.341350e+00	1.341350e+00	1.341350e+00	
21	7.968000e-03	1.341349e+00	1.341349e+00	1.341349e+00	
22	8.568000e-03	1.341349e+00	1.341349e+00	1.341349e+00	
23	9.168000e-03	1.341349e+00	1.341349e+00	1.341349e+00	
24	9.768000e-03	1.341349e+00	1.341349e+00	1.341349e+00	
25	1.036800e-02	1.341350e+00	1.341350e+00	1.341350e+00	
26	1.096800e-02	1.341350e+00	1.341350e+00	1.341350e+00	
27	1.156800e-02	1.341350e+00	1.341350e+00	1.341350e+00	
28	1.216800e-02	1.341350e+00	1.341350e+00	1.341350e+00	
29	1.276800e-02	1.341350e+00	1.341350e+00	1.341350e+00	
30	1.336800e-02	1.341350e+00	1.341350e+00	1.341350e+00	
31	1.396800e-02	1.341350e+00	1.341350e+00	1.341350e+00	
32	1.456800e-02	1.341350e+00	1.341350e+00	1.341350e+00	
33	1.516800e-02	1.341349e+00	1.341349e+00	1.341349e+00	
34	1.576800e-02	1.341349e+00	1.341349e+00	1.341349e+00	
35	1.636800e-02	1.341349e+00	1.341349e+00	1.341349e+00	
36	1.696800e-02	1.341350e+00	1.341350e+00	1.341350e+00	
37	1.756800e-02	1.341350e+00	1.341350e+00	1.341350e+00	
38	1.816800e-02	1.341350e+00	1.341350e+00	1.341350e+00	
39	1.876800e-02	1.341350e+00	1.341350e+00	1.341350e+00	
40	1.936800e-02	1.341350e+00	1.341350e+00	1.341350e+00	
41	1.996800e-02	1.341350e+00	1.341350e+00	1.341350e+00	
42	2.056800e-02	1.341350e+00	1.341350e+00	1.341350e+00	
43	2.116800e-02	1.341350e+00	1.341350e+00	1.341350e+00	
44	2.176800e-02	1.341350e+00	1.341350e+00	1.341350e+00	
45	2.236800e-02	1.341349e+00	1.341349e+00	1.341349e+00	
46	2.296800e-02	1.341349e+00	1.341349e+00	1.341349e+00	
47	2.356800e-02	1.341350e+00	1.341350e+00	1.341350e+00	
48	2.416800e-02	1.341350e+00	1.341350e+00	1.341350e+00	
49	2.476800e-02	1.341350e+00	1.341350e+00	1.341350e+00	
50	2.536800e-02	1.341350e+00	1.341350e+00	1.341350e+00	
51	2.596800e-02	1.341350e+00	1.341350e+00	1.341350e+00	
52	2.656800e-02	1.341350e+00	1.341350e+00	1.341350e+00	
53	2.716800e-02	1.341350e+00	1.341350e+00	1.341350e+00	
54	2.776800e-02	1.341350e+00	1.341350e+00	1.341350e+00	

Index   time            m.x1.xm2.msky13 m.x1.xm2.msky13 m.x1.xm2.msky13 
--------------------------------------------------------------------------------
55	2.836800e-02	1.341350e+00	1.341350e+00	1.341350e+00	
56	2.896800e-02	1.341350e+00	1.341350e+00	1.341350e+00	
57	2.956800e-02	1.341349e+00	1.341349e+00	1.341349e+00	
58	3.000000e-02	1.341349e+00	1.341349e+00	1.341349e+00	

                     * c:\users\hp\esim-workspace\cm\cm.cir
                     Transient Analysis  Fri Nov 08 22:46:08  2024
--------------------------------------------------------------------------------
Index   time            m.x1.xm3.msky13 m.x1.xm3.msky13 m.x1.xm3.msky13 
--------------------------------------------------------------------------------
0	0.000000e+00	1.800000e+00	1.800000e+00	1.800000e+00	
1	3.000000e-06	1.800000e+00	1.800000e+00	1.800000e+00	
2	6.000000e-06	1.800000e+00	1.800000e+00	1.800000e+00	
3	1.200000e-05	1.800000e+00	1.800000e+00	1.800000e+00	
4	2.400000e-05	1.800000e+00	1.800000e+00	1.800000e+00	
5	4.800000e-05	1.800000e+00	1.800000e+00	1.800000e+00	
6	9.600000e-05	1.800000e+00	1.800000e+00	1.800000e+00	
7	1.920000e-04	1.800000e+00	1.800000e+00	1.800000e+00	
8	3.840000e-04	1.800000e+00	1.800000e+00	1.800000e+00	
9	7.680000e-04	1.800000e+00	1.800000e+00	1.800000e+00	
10	1.368000e-03	1.800000e+00	1.800000e+00	1.800000e+00	
11	1.968000e-03	1.800000e+00	1.800000e+00	1.800000e+00	
12	2.568000e-03	1.800000e+00	1.800000e+00	1.800000e+00	
13	3.168000e-03	1.800000e+00	1.800000e+00	1.800000e+00	
14	3.768000e-03	1.800000e+00	1.800000e+00	1.800000e+00	
15	4.368000e-03	1.800000e+00	1.800000e+00	1.800000e+00	
16	4.968000e-03	1.800000e+00	1.800000e+00	1.800000e+00	
17	5.568000e-03	1.800000e+00	1.800000e+00	1.800000e+00	
18	6.168000e-03	1.800000e+00	1.800000e+00	1.800000e+00	
19	6.768000e-03	1.800000e+00	1.800000e+00	1.800000e+00	
20	7.368000e-03	1.800000e+00	1.800000e+00	1.800000e+00	
21	7.968000e-03	1.800000e+00	1.800000e+00	1.800000e+00	
22	8.568000e-03	1.800000e+00	1.800000e+00	1.800000e+00	
23	9.168000e-03	1.800000e+00	1.800000e+00	1.800000e+00	
24	9.768000e-03	1.800000e+00	1.800000e+00	1.800000e+00	
25	1.036800e-02	1.800000e+00	1.800000e+00	1.800000e+00	
26	1.096800e-02	1.800000e+00	1.800000e+00	1.800000e+00	
27	1.156800e-02	1.800000e+00	1.800000e+00	1.800000e+00	
28	1.216800e-02	1.800000e+00	1.800000e+00	1.800000e+00	
29	1.276800e-02	1.800000e+00	1.800000e+00	1.800000e+00	
30	1.336800e-02	1.800000e+00	1.800000e+00	1.800000e+00	
31	1.396800e-02	1.800000e+00	1.800000e+00	1.800000e+00	
32	1.456800e-02	1.800000e+00	1.800000e+00	1.800000e+00	
33	1.516800e-02	1.800000e+00	1.800000e+00	1.800000e+00	
34	1.576800e-02	1.800000e+00	1.800000e+00	1.800000e+00	
35	1.636800e-02	1.800000e+00	1.800000e+00	1.800000e+00	
36	1.696800e-02	1.800000e+00	1.800000e+00	1.800000e+00	
37	1.756800e-02	1.800000e+00	1.800000e+00	1.800000e+00	
38	1.816800e-02	1.800000e+00	1.800000e+00	1.800000e+00	
39	1.876800e-02	1.800000e+00	1.800000e+00	1.800000e+00	
40	1.936800e-02	1.800000e+00	1.800000e+00	1.800000e+00	
41	1.996800e-02	1.800000e+00	1.800000e+00	1.800000e+00	
42	2.056800e-02	1.800000e+00	1.800000e+00	1.800000e+00	
43	2.116800e-02	1.800000e+00	1.800000e+00	1.800000e+00	
44	2.176800e-02	1.800000e+00	1.800000e+00	1.800000e+00	
45	2.236800e-02	1.800000e+00	1.800000e+00	1.800000e+00	
46	2.296800e-02	1.800000e+00	1.800000e+00	1.800000e+00	
47	2.356800e-02	1.800000e+00	1.800000e+00	1.800000e+00	
48	2.416800e-02	1.800000e+00	1.800000e+00	1.800000e+00	
49	2.476800e-02	1.800000e+00	1.800000e+00	1.800000e+00	
50	2.536800e-02	1.800000e+00	1.800000e+00	1.800000e+00	
51	2.596800e-02	1.800000e+00	1.800000e+00	1.800000e+00	
52	2.656800e-02	1.800000e+00	1.800000e+00	1.800000e+00	
53	2.716800e-02	1.800000e+00	1.800000e+00	1.800000e+00	
54	2.776800e-02	1.800000e+00	1.800000e+00	1.800000e+00	

Index   time            m.x1.xm3.msky13 m.x1.xm3.msky13 m.x1.xm3.msky13 
--------------------------------------------------------------------------------
55	2.836800e-02	1.800000e+00	1.800000e+00	1.800000e+00	
56	2.896800e-02	1.800000e+00	1.800000e+00	1.800000e+00	
57	2.956800e-02	1.800000e+00	1.800000e+00	1.800000e+00	
58	3.000000e-02	1.800000e+00	1.800000e+00	1.800000e+00	

                     * c:\users\hp\esim-workspace\cm\cm.cir
                     Transient Analysis  Fri Nov 08 22:46:08  2024
--------------------------------------------------------------------------------
Index   time            m.x1.xm4.msky13 m.x1.xm4.msky13 m.x1.xm4.msky13 
--------------------------------------------------------------------------------
0	0.000000e+00	1.800000e+00	1.800000e+00	1.800000e+00	
1	3.000000e-06	1.800000e+00	1.800000e+00	1.800000e+00	
2	6.000000e-06	1.800000e+00	1.800000e+00	1.800000e+00	
3	1.200000e-05	1.800000e+00	1.800000e+00	1.800000e+00	
4	2.400000e-05	1.800000e+00	1.800000e+00	1.800000e+00	
5	4.800000e-05	1.800000e+00	1.800000e+00	1.800000e+00	
6	9.600000e-05	1.800000e+00	1.800000e+00	1.800000e+00	
7	1.920000e-04	1.800000e+00	1.800000e+00	1.800000e+00	
8	3.840000e-04	1.800000e+00	1.800000e+00	1.800000e+00	
9	7.680000e-04	1.800000e+00	1.800000e+00	1.800000e+00	
10	1.368000e-03	1.800000e+00	1.800000e+00	1.800000e+00	
11	1.968000e-03	1.800000e+00	1.800000e+00	1.800000e+00	
12	2.568000e-03	1.800000e+00	1.800000e+00	1.800000e+00	
13	3.168000e-03	1.800000e+00	1.800000e+00	1.800000e+00	
14	3.768000e-03	1.800000e+00	1.800000e+00	1.800000e+00	
15	4.368000e-03	1.800000e+00	1.800000e+00	1.800000e+00	
16	4.968000e-03	1.800000e+00	1.800000e+00	1.800000e+00	
17	5.568000e-03	1.800000e+00	1.800000e+00	1.800000e+00	
18	6.168000e-03	1.800000e+00	1.800000e+00	1.800000e+00	
19	6.768000e-03	1.800000e+00	1.800000e+00	1.800000e+00	
20	7.368000e-03	1.800000e+00	1.800000e+00	1.800000e+00	
21	7.968000e-03	1.800000e+00	1.800000e+00	1.800000e+00	
22	8.568000e-03	1.800000e+00	1.800000e+00	1.800000e+00	
23	9.168000e-03	1.800000e+00	1.800000e+00	1.800000e+00	
24	9.768000e-03	1.800000e+00	1.800000e+00	1.800000e+00	
25	1.036800e-02	1.800000e+00	1.800000e+00	1.800000e+00	
26	1.096800e-02	1.800000e+00	1.800000e+00	1.800000e+00	
27	1.156800e-02	1.800000e+00	1.800000e+00	1.800000e+00	
28	1.216800e-02	1.800000e+00	1.800000e+00	1.800000e+00	
29	1.276800e-02	1.800000e+00	1.800000e+00	1.800000e+00	
30	1.336800e-02	1.800000e+00	1.800000e+00	1.800000e+00	
31	1.396800e-02	1.800000e+00	1.800000e+00	1.800000e+00	
32	1.456800e-02	1.800000e+00	1.800000e+00	1.800000e+00	
33	1.516800e-02	1.800000e+00	1.800000e+00	1.800000e+00	
34	1.576800e-02	1.800000e+00	1.800000e+00	1.800000e+00	
35	1.636800e-02	1.800000e+00	1.800000e+00	1.800000e+00	
36	1.696800e-02	1.800000e+00	1.800000e+00	1.800000e+00	
37	1.756800e-02	1.800000e+00	1.800000e+00	1.800000e+00	
38	1.816800e-02	1.800000e+00	1.800000e+00	1.800000e+00	
39	1.876800e-02	1.800000e+00	1.800000e+00	1.800000e+00	
40	1.936800e-02	1.800000e+00	1.800000e+00	1.800000e+00	
41	1.996800e-02	1.800000e+00	1.800000e+00	1.800000e+00	
42	2.056800e-02	1.800000e+00	1.800000e+00	1.800000e+00	
43	2.116800e-02	1.800000e+00	1.800000e+00	1.800000e+00	
44	2.176800e-02	1.800000e+00	1.800000e+00	1.800000e+00	
45	2.236800e-02	1.800000e+00	1.800000e+00	1.800000e+00	
46	2.296800e-02	1.800000e+00	1.800000e+00	1.800000e+00	
47	2.356800e-02	1.800000e+00	1.800000e+00	1.800000e+00	
48	2.416800e-02	1.800000e+00	1.800000e+00	1.800000e+00	
49	2.476800e-02	1.800000e+00	1.800000e+00	1.800000e+00	
50	2.536800e-02	1.800000e+00	1.800000e+00	1.800000e+00	
51	2.596800e-02	1.800000e+00	1.800000e+00	1.800000e+00	
52	2.656800e-02	1.800000e+00	1.800000e+00	1.800000e+00	
53	2.716800e-02	1.800000e+00	1.800000e+00	1.800000e+00	
54	2.776800e-02	1.800000e+00	1.800000e+00	1.800000e+00	

Index   time            m.x1.xm4.msky13 m.x1.xm4.msky13 m.x1.xm4.msky13 
--------------------------------------------------------------------------------
55	2.836800e-02	1.800000e+00	1.800000e+00	1.800000e+00	
56	2.896800e-02	1.800000e+00	1.800000e+00	1.800000e+00	
57	2.956800e-02	1.800000e+00	1.800000e+00	1.800000e+00	
58	3.000000e-02	1.800000e+00	1.800000e+00	1.800000e+00	

                     * c:\users\hp\esim-workspace\cm\cm.cir
                     Transient Analysis  Fri Nov 08 22:46:08  2024
--------------------------------------------------------------------------------
Index   time            m.x1.xm5.msky13 m.x1.xm5.msky13 m.x1.xm5.msky13 
--------------------------------------------------------------------------------
0	0.000000e+00	1.689325e-11	4.223037e-11	8.446626e-12	
1	3.000000e-06	1.689323e-11	4.223033e-11	8.446616e-12	
2	6.000000e-06	1.689324e-11	4.223036e-11	8.446622e-12	
3	1.200000e-05	1.689323e-11	4.223033e-11	8.446617e-12	
4	2.400000e-05	1.689324e-11	4.223034e-11	8.446619e-12	
5	4.800000e-05	1.689323e-11	4.223034e-11	8.446617e-12	
6	9.600000e-05	1.689323e-11	4.223034e-11	8.446617e-12	
7	1.920000e-04	1.689328e-11	4.223041e-11	8.446638e-12	
8	3.840000e-04	1.689324e-11	4.223034e-11	8.446618e-12	
9	7.680000e-04	1.689324e-11	4.223034e-11	8.446619e-12	
10	1.368000e-03	1.689325e-11	4.223037e-11	8.446627e-12	
11	1.968000e-03	1.689325e-11	4.223037e-11	8.446626e-12	
12	2.568000e-03	1.689326e-11	4.223038e-11	8.446630e-12	
13	3.168000e-03	1.689324e-11	4.223035e-11	8.446621e-12	
14	3.768000e-03	1.689325e-11	4.223035e-11	8.446623e-12	
15	4.368000e-03	1.689326e-11	4.223039e-11	8.446632e-12	
16	4.968000e-03	1.689323e-11	4.223033e-11	8.446616e-12	
17	5.568000e-03	1.689325e-11	4.223036e-11	8.446625e-12	
18	6.168000e-03	1.689326e-11	4.223038e-11	8.446629e-12	
19	6.768000e-03	1.689326e-11	4.223039e-11	8.446632e-12	
20	7.368000e-03	1.689324e-11	4.223035e-11	8.446620e-12	
21	7.968000e-03	1.689324e-11	4.223034e-11	8.446620e-12	
22	8.568000e-03	1.689326e-11	4.223037e-11	8.446629e-12	
23	9.168000e-03	1.689325e-11	4.223036e-11	8.446625e-12	
24	9.768000e-03	1.689325e-11	4.223037e-11	8.446627e-12	
25	1.036800e-02	1.689325e-11	4.223037e-11	8.446626e-12	
26	1.096800e-02	1.689325e-11	4.223036e-11	8.446624e-12	
27	1.156800e-02	1.689325e-11	4.223037e-11	8.446627e-12	
28	1.216800e-02	1.689326e-11	4.223038e-11	8.446631e-12	
29	1.276800e-02	1.689324e-11	4.223035e-11	8.446622e-12	
30	1.336800e-02	1.689325e-11	4.223037e-11	8.446627e-12	
31	1.396800e-02	1.689325e-11	4.223037e-11	8.446627e-12	
32	1.456800e-02	1.689323e-11	4.223033e-11	8.446616e-12	
33	1.516800e-02	1.689326e-11	4.223038e-11	8.446630e-12	
34	1.576800e-02	1.689325e-11	4.223035e-11	8.446623e-12	
35	1.636800e-02	1.689325e-11	4.223037e-11	8.446627e-12	
36	1.696800e-02	1.689326e-11	4.223038e-11	8.446630e-12	
37	1.756800e-02	1.689324e-11	4.223034e-11	8.446619e-12	
38	1.816800e-02	1.689327e-11	4.223039e-11	8.446633e-12	
39	1.876800e-02	1.689325e-11	4.223036e-11	8.446625e-12	
40	1.936800e-02	1.689325e-11	4.223036e-11	8.446623e-12	
41	1.996800e-02	1.689325e-11	4.223037e-11	8.446626e-12	
42	2.056800e-02	1.689325e-11	4.223036e-11	8.446624e-12	
43	2.116800e-02	1.689326e-11	4.223038e-11	8.446630e-12	
44	2.176800e-02	1.689323e-11	4.223033e-11	8.446617e-12	
45	2.236800e-02	1.689325e-11	4.223036e-11	8.446626e-12	
46	2.296800e-02	1.689325e-11	4.223037e-11	8.446626e-12	
47	2.356800e-02	1.689327e-11	4.223039e-11	8.446633e-12	
48	2.416800e-02	1.689325e-11	4.223036e-11	8.446623e-12	
49	2.476800e-02	1.689325e-11	4.223036e-11	8.446625e-12	
50	2.536800e-02	1.689326e-11	4.223038e-11	8.446629e-12	
51	2.596800e-02	1.689325e-11	4.223037e-11	8.446627e-12	
52	2.656800e-02	1.689324e-11	4.223035e-11	8.446621e-12	
53	2.716800e-02	1.689326e-11	4.223038e-11	8.446631e-12	
54	2.776800e-02	1.689324e-11	4.223035e-11	8.446622e-12	

Index   time            m.x1.xm5.msky13 m.x1.xm5.msky13 m.x1.xm5.msky13 
--------------------------------------------------------------------------------
55	2.836800e-02	1.689324e-11	4.223035e-11	8.446621e-12	
56	2.896800e-02	1.689325e-11	4.223037e-11	8.446626e-12	
57	2.956800e-02	1.689324e-11	4.223035e-11	8.446622e-12	
58	3.000000e-02	1.689326e-11	4.223037e-11	8.446629e-12	

                     * c:\users\hp\esim-workspace\cm\cm.cir
                     Transient Analysis  Fri Nov 08 22:46:08  2024
--------------------------------------------------------------------------------
Index   time            m.x1.xm6.msky13 m.x1.xm6.msky13 m.x1.xm6.msky13 
--------------------------------------------------------------------------------
0	0.000000e+00	8.098641e-31	2.024660e-30	4.049320e-31	
1	3.000000e-06	-5.05238e-18	-3.04120e-18	-2.52619e-18	
2	6.000000e-06	-1.86267e-18	-1.11856e-18	-9.31337e-19	
